        * /home/saurabh/esim-workspace/cmos_nand_gate/cmos_nand_gate.cir
        Transient Analysis  Sat Jun 28 20:50:32  2025
--------------------------------------------------------------------------------
Index   time            inputa          inputb          out             
--------------------------------------------------------------------------------
0	0.000000e+00	0.000000e+00	0.000000e+00	5.000000e+00	
1	1.000000e-06	5.000000e-02	5.000000e-02	5.000000e+00	
2	2.000000e-06	1.000000e-01	1.000000e-01	5.000000e+00	
3	4.000000e-06	2.000000e-01	2.000000e-01	5.000000e+00	
4	8.000000e-06	4.000000e-01	4.000000e-01	4.999953e+00	
5	1.600000e-05	8.000000e-01	8.000000e-01	4.988877e+00	
6	2.833944e-05	1.416972e+00	1.416972e+00	4.924990e+00	
7	4.900722e-05	2.450361e+00	2.450361e+00	4.709815e+00	
8	9.034278e-05	4.517139e+00	4.517139e+00	8.107888e-03	
9	1.000000e-04	5.000000e+00	5.000000e+00	-2.37527e-06	
10	1.013655e-04	5.000000e+00	5.000000e+00	1.025708e-07	
11	1.040965e-04	5.000000e+00	5.000000e+00	1.026613e-07	
12	1.095584e-04	5.000000e+00	5.000000e+00	1.025788e-07	
13	1.204823e-04	5.000000e+00	5.000000e+00	1.026633e-07	
14	1.423302e-04	5.000000e+00	5.000000e+00	1.025788e-07	
15	1.860258e-04	5.000000e+00	5.000000e+00	1.026633e-07	
16	2.734171e-04	5.000000e+00	5.000000e+00	1.025788e-07	
17	3.734171e-04	5.000000e+00	5.000000e+00	1.026633e-07	
18	4.734171e-04	5.000000e+00	5.000000e+00	1.025788e-07	
19	5.734171e-04	5.000000e+00	5.000000e+00	1.026633e-07	
20	6.734171e-04	5.000000e+00	5.000000e+00	1.025788e-07	
21	7.734171e-04	5.000000e+00	5.000000e+00	1.026633e-07	
22	8.734171e-04	5.000000e+00	5.000000e+00	1.025788e-07	
23	9.734171e-04	5.000000e+00	5.000000e+00	1.026633e-07	
24	1.073417e-03	5.000000e+00	5.000000e+00	1.025788e-07	
25	1.173417e-03	5.000000e+00	5.000000e+00	1.026633e-07	
26	1.273417e-03	5.000000e+00	5.000000e+00	1.025788e-07	
27	1.373417e-03	5.000000e+00	5.000000e+00	1.026633e-07	
28	1.473417e-03	5.000000e+00	5.000000e+00	1.025788e-07	
29	1.573417e-03	5.000000e+00	5.000000e+00	1.026633e-07	
30	1.673417e-03	5.000000e+00	5.000000e+00	1.025788e-07	
31	1.773417e-03	5.000000e+00	5.000000e+00	1.026633e-07	
32	1.873417e-03	5.000000e+00	5.000000e+00	1.025788e-07	
33	1.973417e-03	5.000000e+00	5.000000e+00	1.026633e-07	
34	2.073417e-03	5.000000e+00	5.000000e+00	1.025788e-07	
35	2.173417e-03	5.000000e+00	5.000000e+00	1.026633e-07	
36	2.273417e-03	5.000000e+00	5.000000e+00	1.025788e-07	
37	2.373417e-03	5.000000e+00	5.000000e+00	1.026633e-07	
38	2.473417e-03	5.000000e+00	5.000000e+00	1.025788e-07	
39	2.573417e-03	5.000000e+00	5.000000e+00	1.026633e-07	
40	2.673417e-03	5.000000e+00	5.000000e+00	1.025788e-07	
41	2.773417e-03	5.000000e+00	5.000000e+00	1.026633e-07	
42	2.873417e-03	5.000000e+00	5.000000e+00	1.025788e-07	
43	2.973417e-03	5.000000e+00	5.000000e+00	1.026633e-07	
44	3.073417e-03	5.000000e+00	5.000000e+00	1.025788e-07	
45	3.173417e-03	5.000000e+00	5.000000e+00	1.026633e-07	
46	3.273417e-03	5.000000e+00	5.000000e+00	1.025788e-07	
47	3.373417e-03	5.000000e+00	5.000000e+00	1.026633e-07	
48	3.473417e-03	5.000000e+00	5.000000e+00	1.025788e-07	
49	3.573417e-03	5.000000e+00	5.000000e+00	1.026633e-07	
50	3.673417e-03	5.000000e+00	5.000000e+00	1.025788e-07	
51	3.773417e-03	5.000000e+00	5.000000e+00	1.026633e-07	
52	3.873417e-03	5.000000e+00	5.000000e+00	1.025788e-07	
53	3.973417e-03	5.000000e+00	5.000000e+00	1.026633e-07	
54	4.073417e-03	5.000000e+00	5.000000e+00	1.025788e-07	

Index   time            inputa          inputb          out             
--------------------------------------------------------------------------------
55	4.173417e-03	5.000000e+00	5.000000e+00	1.026633e-07	
56	4.273417e-03	5.000000e+00	5.000000e+00	1.025788e-07	
57	4.373417e-03	5.000000e+00	5.000000e+00	1.026633e-07	
58	4.473417e-03	5.000000e+00	5.000000e+00	1.025788e-07	
59	4.573417e-03	5.000000e+00	5.000000e+00	1.026633e-07	
60	4.673417e-03	5.000000e+00	5.000000e+00	1.025788e-07	
61	4.773417e-03	5.000000e+00	5.000000e+00	1.026633e-07	
62	4.873417e-03	5.000000e+00	5.000000e+00	1.025788e-07	
63	4.973417e-03	5.000000e+00	5.000000e+00	1.026633e-07	
64	5.073417e-03	5.000000e+00	5.000000e+00	1.025788e-07	
65	5.173417e-03	5.000000e+00	5.000000e+00	1.026633e-07	
66	5.273417e-03	5.000000e+00	5.000000e+00	1.025788e-07	
67	5.373417e-03	5.000000e+00	5.000000e+00	1.026633e-07	
68	5.473417e-03	5.000000e+00	5.000000e+00	1.025788e-07	
69	5.573417e-03	5.000000e+00	5.000000e+00	1.026633e-07	
70	5.673417e-03	5.000000e+00	5.000000e+00	1.025788e-07	
71	5.773417e-03	5.000000e+00	5.000000e+00	1.026633e-07	
72	5.873417e-03	5.000000e+00	5.000000e+00	1.025788e-07	
73	5.973417e-03	5.000000e+00	5.000000e+00	1.026633e-07	
74	6.073417e-03	5.000000e+00	5.000000e+00	1.025788e-07	
75	6.173417e-03	5.000000e+00	5.000000e+00	1.026633e-07	
76	6.273417e-03	5.000000e+00	5.000000e+00	1.025788e-07	
77	6.373417e-03	5.000000e+00	5.000000e+00	1.026633e-07	
78	6.473417e-03	5.000000e+00	5.000000e+00	1.025788e-07	
79	6.573417e-03	5.000000e+00	5.000000e+00	1.026633e-07	
80	6.673417e-03	5.000000e+00	5.000000e+00	1.025788e-07	
81	6.773417e-03	5.000000e+00	5.000000e+00	1.026633e-07	
82	6.873417e-03	5.000000e+00	5.000000e+00	1.025788e-07	
83	6.973417e-03	5.000000e+00	5.000000e+00	1.026633e-07	
84	7.073417e-03	5.000000e+00	5.000000e+00	1.025788e-07	
85	7.173417e-03	5.000000e+00	5.000000e+00	1.026633e-07	
86	7.273417e-03	5.000000e+00	5.000000e+00	1.025788e-07	
87	7.373417e-03	5.000000e+00	5.000000e+00	1.026633e-07	
88	7.473417e-03	5.000000e+00	5.000000e+00	1.025788e-07	
89	7.573417e-03	5.000000e+00	5.000000e+00	1.026633e-07	
90	7.673417e-03	5.000000e+00	5.000000e+00	1.025788e-07	
91	7.773417e-03	5.000000e+00	5.000000e+00	1.026633e-07	
92	7.873417e-03	5.000000e+00	5.000000e+00	1.025788e-07	
93	7.973417e-03	5.000000e+00	5.000000e+00	1.026633e-07	
94	8.073417e-03	5.000000e+00	5.000000e+00	1.025788e-07	
95	8.173417e-03	5.000000e+00	5.000000e+00	1.026633e-07	
96	8.273417e-03	5.000000e+00	5.000000e+00	1.025788e-07	
97	8.373417e-03	5.000000e+00	5.000000e+00	1.026633e-07	
98	8.473417e-03	5.000000e+00	5.000000e+00	1.025788e-07	
99	8.573417e-03	5.000000e+00	5.000000e+00	1.026633e-07	
100	8.673417e-03	5.000000e+00	5.000000e+00	1.025788e-07	
101	8.773417e-03	5.000000e+00	5.000000e+00	1.026633e-07	
102	8.873417e-03	5.000000e+00	5.000000e+00	1.025788e-07	
103	8.973417e-03	5.000000e+00	5.000000e+00	1.026633e-07	
104	9.073417e-03	5.000000e+00	5.000000e+00	1.025788e-07	
105	9.173417e-03	5.000000e+00	5.000000e+00	1.026633e-07	
106	9.273417e-03	5.000000e+00	5.000000e+00	1.025788e-07	
107	9.373417e-03	5.000000e+00	5.000000e+00	1.026633e-07	
108	9.473417e-03	5.000000e+00	5.000000e+00	1.025788e-07	
109	9.573417e-03	5.000000e+00	5.000000e+00	1.026633e-07	
110	9.673417e-03	5.000000e+00	5.000000e+00	1.025788e-07	
111	9.773417e-03	5.000000e+00	5.000000e+00	1.026633e-07	
112	9.873417e-03	5.000000e+00	5.000000e+00	1.025788e-07	

Index   time            inputa          inputb          out             
--------------------------------------------------------------------------------
113	9.973417e-03	5.000000e+00	5.000000e+00	1.026633e-07	
114	1.007342e-02	5.000000e+00	5.000000e+00	1.025788e-07	
115	1.010000e-02	5.000000e+00	5.000000e+00	1.026633e-07	
116	1.010218e-02	5.000000e+00	4.890972e+00	1.657014e-07	
117	1.010654e-02	5.000000e+00	4.672915e+00	1.494288e-04	
118	1.011526e-02	5.000000e+00	4.236801e+00	7.005437e-02	
119	1.012672e-02	5.000000e+00	3.663982e+00	3.805658e-01	
120	1.014538e-02	5.000000e+00	2.730823e+00	1.460348e+00	
121	1.018271e-02	5.000000e+00	8.645062e-01	4.937769e+00	
122	1.020000e-02	5.000000e+00	0.000000e+00	5.000000e+00	
123	1.020292e-02	5.000000e+00	0.000000e+00	5.000000e+00	
124	1.020875e-02	5.000000e+00	0.000000e+00	5.000000e+00	
125	1.022041e-02	5.000000e+00	0.000000e+00	5.000000e+00	
126	1.024374e-02	5.000000e+00	0.000000e+00	5.000000e+00	
127	1.029039e-02	5.000000e+00	0.000000e+00	5.000000e+00	
128	1.038370e-02	5.000000e+00	0.000000e+00	5.000000e+00	
129	1.048370e-02	5.000000e+00	0.000000e+00	5.000000e+00	
130	1.058370e-02	5.000000e+00	0.000000e+00	5.000000e+00	
131	1.068370e-02	5.000000e+00	0.000000e+00	5.000000e+00	
132	1.078370e-02	5.000000e+00	0.000000e+00	5.000000e+00	
133	1.088370e-02	5.000000e+00	0.000000e+00	5.000000e+00	
134	1.098370e-02	5.000000e+00	0.000000e+00	5.000000e+00	
135	1.108370e-02	5.000000e+00	0.000000e+00	5.000000e+00	
136	1.118370e-02	5.000000e+00	0.000000e+00	5.000000e+00	
137	1.128370e-02	5.000000e+00	0.000000e+00	5.000000e+00	
138	1.138370e-02	5.000000e+00	0.000000e+00	5.000000e+00	
139	1.148370e-02	5.000000e+00	0.000000e+00	5.000000e+00	
140	1.158370e-02	5.000000e+00	0.000000e+00	5.000000e+00	
141	1.168370e-02	5.000000e+00	0.000000e+00	5.000000e+00	
142	1.178370e-02	5.000000e+00	0.000000e+00	5.000000e+00	
143	1.188370e-02	5.000000e+00	0.000000e+00	5.000000e+00	
144	1.198370e-02	5.000000e+00	0.000000e+00	5.000000e+00	
145	1.208370e-02	5.000000e+00	0.000000e+00	5.000000e+00	
146	1.218370e-02	5.000000e+00	0.000000e+00	5.000000e+00	
147	1.228370e-02	5.000000e+00	0.000000e+00	5.000000e+00	
148	1.238370e-02	5.000000e+00	0.000000e+00	5.000000e+00	
149	1.248370e-02	5.000000e+00	0.000000e+00	5.000000e+00	
150	1.258370e-02	5.000000e+00	0.000000e+00	5.000000e+00	
151	1.268370e-02	5.000000e+00	0.000000e+00	5.000000e+00	
152	1.278370e-02	5.000000e+00	0.000000e+00	5.000000e+00	
153	1.288370e-02	5.000000e+00	0.000000e+00	5.000000e+00	
154	1.298370e-02	5.000000e+00	0.000000e+00	5.000000e+00	
155	1.308370e-02	5.000000e+00	0.000000e+00	5.000000e+00	
156	1.318370e-02	5.000000e+00	0.000000e+00	5.000000e+00	
157	1.328370e-02	5.000000e+00	0.000000e+00	5.000000e+00	
158	1.338370e-02	5.000000e+00	0.000000e+00	5.000000e+00	
159	1.348370e-02	5.000000e+00	0.000000e+00	5.000000e+00	
160	1.358370e-02	5.000000e+00	0.000000e+00	5.000000e+00	
161	1.368370e-02	5.000000e+00	0.000000e+00	5.000000e+00	
162	1.378370e-02	5.000000e+00	0.000000e+00	5.000000e+00	
163	1.388370e-02	5.000000e+00	0.000000e+00	5.000000e+00	
164	1.398370e-02	5.000000e+00	0.000000e+00	5.000000e+00	
165	1.408370e-02	5.000000e+00	0.000000e+00	5.000000e+00	
166	1.418370e-02	5.000000e+00	0.000000e+00	5.000000e+00	
167	1.428370e-02	5.000000e+00	0.000000e+00	5.000000e+00	
168	1.438370e-02	5.000000e+00	0.000000e+00	5.000000e+00	
169	1.448370e-02	5.000000e+00	0.000000e+00	5.000000e+00	
170	1.458370e-02	5.000000e+00	0.000000e+00	5.000000e+00	

Index   time            inputa          inputb          out             
--------------------------------------------------------------------------------
171	1.468370e-02	5.000000e+00	0.000000e+00	5.000000e+00	
172	1.478370e-02	5.000000e+00	0.000000e+00	5.000000e+00	
173	1.488370e-02	5.000000e+00	0.000000e+00	5.000000e+00	
174	1.498370e-02	5.000000e+00	0.000000e+00	5.000000e+00	
175	1.508370e-02	5.000000e+00	0.000000e+00	5.000000e+00	
176	1.518370e-02	5.000000e+00	0.000000e+00	5.000000e+00	
177	1.528370e-02	5.000000e+00	0.000000e+00	5.000000e+00	
178	1.538370e-02	5.000000e+00	0.000000e+00	5.000000e+00	
179	1.548370e-02	5.000000e+00	0.000000e+00	5.000000e+00	
180	1.558370e-02	5.000000e+00	0.000000e+00	5.000000e+00	
181	1.568370e-02	5.000000e+00	0.000000e+00	5.000000e+00	
182	1.578370e-02	5.000000e+00	0.000000e+00	5.000000e+00	
183	1.588370e-02	5.000000e+00	0.000000e+00	5.000000e+00	
184	1.598370e-02	5.000000e+00	0.000000e+00	5.000000e+00	
185	1.608370e-02	5.000000e+00	0.000000e+00	5.000000e+00	
186	1.618370e-02	5.000000e+00	0.000000e+00	5.000000e+00	
187	1.628370e-02	5.000000e+00	0.000000e+00	5.000000e+00	
188	1.638370e-02	5.000000e+00	0.000000e+00	5.000000e+00	
189	1.648370e-02	5.000000e+00	0.000000e+00	5.000000e+00	
190	1.658370e-02	5.000000e+00	0.000000e+00	5.000000e+00	
191	1.668370e-02	5.000000e+00	0.000000e+00	5.000000e+00	
192	1.678370e-02	5.000000e+00	0.000000e+00	5.000000e+00	
193	1.688370e-02	5.000000e+00	0.000000e+00	5.000000e+00	
194	1.698370e-02	5.000000e+00	0.000000e+00	5.000000e+00	
195	1.708370e-02	5.000000e+00	0.000000e+00	5.000000e+00	
196	1.710000e-02	5.000000e+00	0.000000e+00	5.000000e+00	
197	1.710154e-02	4.923092e+00	0.000000e+00	5.000000e+00	
198	1.710461e-02	4.769277e+00	0.000000e+00	5.000000e+00	
199	1.711077e-02	4.461646e+00	0.000000e+00	5.000000e+00	
200	1.712199e-02	3.900615e+00	0.000000e+00	5.000000e+00	
201	1.714443e-02	2.778553e+00	0.000000e+00	5.000000e+00	
202	1.716488e-02	1.756214e+00	0.000000e+00	5.000000e+00	
203	1.720000e-02	0.000000e+00	0.000000e+00	5.000033e+00	
204	1.720409e-02	0.000000e+00	0.000000e+00	5.000000e+00	
205	1.721227e-02	0.000000e+00	0.000000e+00	5.000000e+00	
206	1.722863e-02	0.000000e+00	0.000000e+00	5.000000e+00	
207	1.726134e-02	0.000000e+00	0.000000e+00	5.000000e+00	
208	1.732677e-02	0.000000e+00	0.000000e+00	5.000000e+00	
209	1.742677e-02	0.000000e+00	0.000000e+00	5.000000e+00	
210	1.752677e-02	0.000000e+00	0.000000e+00	5.000000e+00	
211	1.762677e-02	0.000000e+00	0.000000e+00	5.000000e+00	
212	1.772677e-02	0.000000e+00	0.000000e+00	5.000000e+00	
213	1.782677e-02	0.000000e+00	0.000000e+00	5.000000e+00	
214	1.792677e-02	0.000000e+00	0.000000e+00	5.000000e+00	
215	1.802677e-02	0.000000e+00	0.000000e+00	5.000000e+00	
216	1.812677e-02	0.000000e+00	0.000000e+00	5.000000e+00	
217	1.822677e-02	0.000000e+00	0.000000e+00	5.000000e+00	
218	1.832677e-02	0.000000e+00	0.000000e+00	5.000000e+00	
219	1.842677e-02	0.000000e+00	0.000000e+00	5.000000e+00	
220	1.852677e-02	0.000000e+00	0.000000e+00	5.000000e+00	
221	1.862677e-02	0.000000e+00	0.000000e+00	5.000000e+00	
222	1.872677e-02	0.000000e+00	0.000000e+00	5.000000e+00	
223	1.882677e-02	0.000000e+00	0.000000e+00	5.000000e+00	
224	1.892677e-02	0.000000e+00	0.000000e+00	5.000000e+00	
225	1.902677e-02	0.000000e+00	0.000000e+00	5.000000e+00	
226	1.912677e-02	0.000000e+00	0.000000e+00	5.000000e+00	
227	1.922677e-02	0.000000e+00	0.000000e+00	5.000000e+00	
228	1.932677e-02	0.000000e+00	0.000000e+00	5.000000e+00	

Index   time            inputa          inputb          out             
--------------------------------------------------------------------------------
229	1.942677e-02	0.000000e+00	0.000000e+00	5.000000e+00	
230	1.952677e-02	0.000000e+00	0.000000e+00	5.000000e+00	
231	1.962677e-02	0.000000e+00	0.000000e+00	5.000000e+00	
232	1.972677e-02	0.000000e+00	0.000000e+00	5.000000e+00	
233	1.982677e-02	0.000000e+00	0.000000e+00	5.000000e+00	
234	1.992677e-02	0.000000e+00	0.000000e+00	5.000000e+00	
235	2.000000e-02	0.000000e+00	0.000000e+00	5.000000e+00	
236	2.001000e-02	0.000000e+00	5.000000e-01	5.000000e+00	
237	2.003000e-02	0.000000e+00	1.500000e+00	5.000000e+00	
238	2.007000e-02	0.000000e+00	3.500000e+00	5.000000e+00	
239	2.010000e-02	0.000000e+00	5.000000e+00	5.000000e+00	
240	2.010211e-02	0.000000e+00	5.000000e+00	5.000000e+00	
241	2.010632e-02	0.000000e+00	5.000000e+00	5.000000e+00	
242	2.011474e-02	0.000000e+00	5.000000e+00	5.000000e+00	
243	2.013159e-02	0.000000e+00	5.000000e+00	5.000000e+00	
244	2.016529e-02	0.000000e+00	5.000000e+00	5.000000e+00	
245	2.023269e-02	0.000000e+00	5.000000e+00	5.000000e+00	
246	2.033269e-02	0.000000e+00	5.000000e+00	5.000000e+00	
247	2.043269e-02	0.000000e+00	5.000000e+00	5.000000e+00	
248	2.053269e-02	0.000000e+00	5.000000e+00	5.000000e+00	
249	2.063269e-02	0.000000e+00	5.000000e+00	5.000000e+00	
250	2.073269e-02	0.000000e+00	5.000000e+00	5.000000e+00	
251	2.083269e-02	0.000000e+00	5.000000e+00	5.000000e+00	
252	2.093269e-02	0.000000e+00	5.000000e+00	5.000000e+00	
253	2.103269e-02	0.000000e+00	5.000000e+00	5.000000e+00	
254	2.113269e-02	0.000000e+00	5.000000e+00	5.000000e+00	
255	2.123269e-02	0.000000e+00	5.000000e+00	5.000000e+00	
256	2.133269e-02	0.000000e+00	5.000000e+00	5.000000e+00	
257	2.143269e-02	0.000000e+00	5.000000e+00	5.000000e+00	
258	2.153269e-02	0.000000e+00	5.000000e+00	5.000000e+00	
259	2.163269e-02	0.000000e+00	5.000000e+00	5.000000e+00	
260	2.173269e-02	0.000000e+00	5.000000e+00	5.000000e+00	
261	2.183269e-02	0.000000e+00	5.000000e+00	5.000000e+00	
262	2.193269e-02	0.000000e+00	5.000000e+00	5.000000e+00	
263	2.203269e-02	0.000000e+00	5.000000e+00	5.000000e+00	
264	2.213269e-02	0.000000e+00	5.000000e+00	5.000000e+00	
265	2.223269e-02	0.000000e+00	5.000000e+00	5.000000e+00	
266	2.233269e-02	0.000000e+00	5.000000e+00	5.000000e+00	
267	2.243269e-02	0.000000e+00	5.000000e+00	5.000000e+00	
268	2.253269e-02	0.000000e+00	5.000000e+00	5.000000e+00	
269	2.263269e-02	0.000000e+00	5.000000e+00	5.000000e+00	
270	2.273269e-02	0.000000e+00	5.000000e+00	5.000000e+00	
271	2.283269e-02	0.000000e+00	5.000000e+00	5.000000e+00	
272	2.293269e-02	0.000000e+00	5.000000e+00	5.000000e+00	
273	2.303269e-02	0.000000e+00	5.000000e+00	5.000000e+00	
274	2.313269e-02	0.000000e+00	5.000000e+00	5.000000e+00	
275	2.323269e-02	0.000000e+00	5.000000e+00	5.000000e+00	
276	2.333269e-02	0.000000e+00	5.000000e+00	5.000000e+00	
277	2.343269e-02	0.000000e+00	5.000000e+00	5.000000e+00	
278	2.353269e-02	0.000000e+00	5.000000e+00	5.000000e+00	
279	2.363269e-02	0.000000e+00	5.000000e+00	5.000000e+00	
280	2.373269e-02	0.000000e+00	5.000000e+00	5.000000e+00	
281	2.383269e-02	0.000000e+00	5.000000e+00	5.000000e+00	
282	2.393269e-02	0.000000e+00	5.000000e+00	5.000000e+00	
283	2.403269e-02	0.000000e+00	5.000000e+00	5.000000e+00	
284	2.413269e-02	0.000000e+00	5.000000e+00	5.000000e+00	
285	2.423269e-02	0.000000e+00	5.000000e+00	5.000000e+00	
286	2.433269e-02	0.000000e+00	5.000000e+00	5.000000e+00	

Index   time            inputa          inputb          out             
--------------------------------------------------------------------------------
287	2.443269e-02	0.000000e+00	5.000000e+00	5.000000e+00	
288	2.453269e-02	0.000000e+00	5.000000e+00	5.000000e+00	
289	2.463269e-02	0.000000e+00	5.000000e+00	5.000000e+00	
290	2.473269e-02	0.000000e+00	5.000000e+00	5.000000e+00	
291	2.483269e-02	0.000000e+00	5.000000e+00	5.000000e+00	
292	2.493269e-02	0.000000e+00	5.000000e+00	5.000000e+00	
293	2.503269e-02	0.000000e+00	5.000000e+00	5.000000e+00	
294	2.513269e-02	0.000000e+00	5.000000e+00	5.000000e+00	
295	2.523269e-02	0.000000e+00	5.000000e+00	5.000000e+00	
296	2.533269e-02	0.000000e+00	5.000000e+00	5.000000e+00	
297	2.543269e-02	0.000000e+00	5.000000e+00	5.000000e+00	
298	2.553269e-02	0.000000e+00	5.000000e+00	5.000000e+00	
299	2.563269e-02	0.000000e+00	5.000000e+00	5.000000e+00	
300	2.573269e-02	0.000000e+00	5.000000e+00	5.000000e+00	
301	2.583269e-02	0.000000e+00	5.000000e+00	5.000000e+00	
302	2.593269e-02	0.000000e+00	5.000000e+00	5.000000e+00	
303	2.603269e-02	0.000000e+00	5.000000e+00	5.000000e+00	
304	2.613269e-02	0.000000e+00	5.000000e+00	5.000000e+00	
305	2.623269e-02	0.000000e+00	5.000000e+00	5.000000e+00	
306	2.633269e-02	0.000000e+00	5.000000e+00	5.000000e+00	
307	2.643269e-02	0.000000e+00	5.000000e+00	5.000000e+00	
308	2.653269e-02	0.000000e+00	5.000000e+00	5.000000e+00	
309	2.663269e-02	0.000000e+00	5.000000e+00	5.000000e+00	
310	2.673269e-02	0.000000e+00	5.000000e+00	5.000000e+00	
311	2.683269e-02	0.000000e+00	5.000000e+00	5.000000e+00	
312	2.693269e-02	0.000000e+00	5.000000e+00	5.000000e+00	
313	2.703269e-02	0.000000e+00	5.000000e+00	5.000000e+00	
314	2.713269e-02	0.000000e+00	5.000000e+00	5.000000e+00	
315	2.723269e-02	0.000000e+00	5.000000e+00	5.000000e+00	
316	2.733269e-02	0.000000e+00	5.000000e+00	5.000000e+00	
317	2.743269e-02	0.000000e+00	5.000000e+00	5.000000e+00	
318	2.753269e-02	0.000000e+00	5.000000e+00	5.000000e+00	
319	2.763269e-02	0.000000e+00	5.000000e+00	5.000000e+00	
320	2.773269e-02	0.000000e+00	5.000000e+00	5.000000e+00	
321	2.783269e-02	0.000000e+00	5.000000e+00	5.000000e+00	
322	2.793269e-02	0.000000e+00	5.000000e+00	5.000000e+00	
323	2.803269e-02	0.000000e+00	5.000000e+00	5.000000e+00	
324	2.813269e-02	0.000000e+00	5.000000e+00	5.000000e+00	
325	2.823269e-02	0.000000e+00	5.000000e+00	5.000000e+00	
326	2.833269e-02	0.000000e+00	5.000000e+00	5.000000e+00	
327	2.843269e-02	0.000000e+00	5.000000e+00	5.000000e+00	
328	2.853269e-02	0.000000e+00	5.000000e+00	5.000000e+00	
329	2.863269e-02	0.000000e+00	5.000000e+00	5.000000e+00	
330	2.873269e-02	0.000000e+00	5.000000e+00	5.000000e+00	
331	2.883269e-02	0.000000e+00	5.000000e+00	5.000000e+00	
